"Freq [GHz]","Phi [deg]","Theta [deg]","mag(rEL3X) [V]","mag(rEL3Y) [V]"
82,0,0,48.1248214072935,0.00429517047580398
82,0,1,48.0277981606356,0.00427238179552332
82,0,2,47.7375338769762,0.00421548788018316
82,0,3,47.2573661421852,0.00412681584516523
82,0,4,46.5928040738261,0.00400927391773032
82,0,5,45.7514493279788,0.00386638457014604
82,0,6,44.7428881474377,0.00370233565795523
82,0,7,43.5785569972222,0.00352205483888476
82,0,8,42.2715849341482,0.00333130992054768
82,0,9,40.8366163610632,0.00313682900282442
82,0,10,39.2896181973032,0.00294641276165167
82,0,11,37.6476757231701,0.00276896776963462
82,0,12,35.9287813854216,0.00261432022415312
82,0,13,34.1516206232766,0.00249260038746337
82,0,14,32.3353582039559,0.00241301764461613
82,0,15,30.4994275186956,0.00238212594946139
82,0,16,28.6633236105492,0.00240219333596181
82,0,17,26.8463981580152,0.0024705770221885
82,0,18,25.0676509691132,0.00258053312497401
82,0,19,23.3455075538238,0.00272296859240641
82,0,20,21.6975661188618,0.00288821502778004
82,0,21,20.1402906534371,0.00306723247595815
82,0,22,18.6886218398894,0.00325217431884676
82,0,23,17.3554787521721,0.00343651402762295
82,0,24,16.1511386301304,0.00361495247841937
82,0,25,15.0825170876579,0.00378324892791098
82,0,26,14.1524295220282,0.00393804682423046
82,0,27,13.358984250324,0.00407672175793486
82,0,28,12.695305838287,0.00419725755768083
82,0,29,12.1497684870644,0.00429814804846566
82,0,30,11.7068102343232,0.00437831956123261
82,0,31,11.3482300096102,0.00443706930839276
82,0,32,11.0547220991219,0.00447401556019127
82,0,33,10.8073521394433,0.00448905648993172
82,0,34,10.5887396846719,0.00448233536855934
82,0,35,10.3838352234171,0.00445421042733057
82,0,36,10.1802975373553,0.00440522818561921
82,0,37,9.96855032727103,0.00433609939150076
82,0,38,9.74162089099754,0.00424767697628073
82,0,39,9.49485456972265,0.0041409356076505
82,0,40,9.22557561346071,0.00401695255873779
82,0,41,8.93274087849893,0.0038768897062805
82,0,42,8.61661321994435,0.00372197654113517
82,0,43,8.27846784991181,0.00355349412474333
82,0,44,7.92033644189732,0.00337275996188379
82,0,45,7.54478894439382,0.00318111378566615
82,0,46,7.15475062178936,0.00297990426860476
82,0,47,6.75335080695712,0.00277047668548683
82,0,48,6.34379959371623,0.00255416156145535
82,0,49,5.92928883194943,0.00233226434510323
82,0,50,5.51291409288852,0.00210605615419122
82,0,51,5.09761462916754,0.00187676565900098
82,0,52,4.68612870626885,0.00164557221151013
82,0,53,4.28096200513417,0.00141360044299272
82,0,54,3.88436708404167,0.00118191687664237
82,0,55,3.4983321447186,0.000951530126262628
82,0,56,3.12457758185894,0.000723400111809988
82,0,57,2.76455902090559,0.000498480808826573
82,0,58,2.4194757902672,0.000277973143198577
82,0,59,2.09028407949458,6.84659842335999E-05
82,0,60,1.77771451753009,0.000157065932933764
82,0,61,1.48229486553178,0.000360934175490343
82,0,62,1.20438086002246,0.000560263025120672
82,0,63,0.944205095283676,0.00075330320597937
82,0,64,0.70197826801858,0.000939489201914503
82,0,65,0.478189984180509,0.00111846240764266
82,0,66,0.27503766777027,0.00128995975950739
82,0,67,0.11134009308796,0.0014537856227708
82,0,68,0.141115883993836,0.00160980008378357
82,0,69,0.285482435402261,0.0017579117586742
82,0,70,0.427434130036921,0.00189807213237763
82,0,71,0.557836890052757,0.00203027051404939
82,0,72,0.67571604147786,0.00215452929876394
82,0,73,0.781269582490165,0.00227089943001336
82,0,74,0.875001218170089,0.00237945603386819
82,0,75,0.957517400021272,0.00248029422533208
82,0,76,1.02945907037164,0.00257352509848035
82,0,77,1.09147204454616,0.00265927191525501
82,0,78,1.14419146506537,0.00273766650737122
82,0,79,1.18823247307438,0.00280884590415146
82,0,80,1.22418413436596,0.00287294919676519
82,0,81,1.25260533930652,0.00293011464705174
82,0,82,1.27402204990073,0.0029804770469509
82,0,83,1.28892554836244,0.00302416533275297
82,0,84,1.29777147366064,0.00306130045692986
82,0,85,1.30097950015666,0.0030919935192749
82,0,86,1.29893355032712,0.0031163441584494
82,0,87,1.2919824568767,0.00313443920473033
82,0,88,1.28044100531469,0.0031463515949689
82,0,89,1.26459129969293,0.00315213955114189
82,0,90,1.24468440337361,0.0031518460247615
82,0,91,1.22094221428212,0.00314549841047994
82,0,92,1.19355954055697,0.00313310853367903
82,0,93,1.16270634808388,0.00311467291857959
82,0,94,1.12853015624001,0.00309017334552592
82,0,95,1.09115856238511,0.00305957770867253
82,0,96,1.05070187932786,0.0030228411884249
82,0,97,1.00725587332356,0.00297990775698729
82,0,98,0.960904593375446,0.00293071204048241
82,0,99,0.911723286168484,0.00287518156808648
82,0,100,0.859781395698631,0.00281323944824138
82,0,101,0.805145654194421,0.00274480752582188
82,0,102,0.747883284545533,0.00266981009449846
82,0,103,0.688065361157918,0.0025881782690975
82,0,104,0.625770431806469,0.00249985516994172
82,0,105,0.561088626204463,0.00240480214506075
82,0,106,0.494126769634245,0.00230300637478915
82,0,107,0.425015781282237,0.00219449039762011
82,0,108,0.353923866960754,0.002079324422312
82,0,109,0.281086681089844,0.00195764285321453
82,0,110,0.206898690262275,0.00182966745251977
82,0,111,0.132312818510125,0.0016957413882098
82,0,112,0.0621581014277109,0.00155638187534829
82,0,113,0.0500921622213315,0.00141236591190314
82,0,114,0.117997324187538,0.00126487741856069
82,0,115,0.195975399994117,0.00111577287672696
82,0,116,0.275773805960436,0.000968082348387005
82,0,117,0.355974136923111,0.000826975346112297
82,0,118,0.435900236727281,0.000701539475339515
82,0,119,0.515028407197775,0.000607246074906846
82,0,120,0.592870072182119,0.000565595535925745
82,0,121,0.668939787576603,0.00059257050199895
82,0,122,0.742746227781445,0.00068344064887358
82,0,123,0.813791321454064,0.00081929906118381
82,0,124,0.881573045676517,0.000982745852698656
82,0,125,0.945590260126426,0.00116247421774897
82,0,126,1.00534890447672,0.00135160773725239
82,0,127,1.06036922628757,0.00154574232368826
82,0,128,1.11019383898262,0.00174177904082025
82,0,129,1.15439645849933,0.00193731138451457
82,0,130,1.19259118063637,0.00213030752451603
82,0,131,1.22444215853086,0.00231894272194853
82,0,132,1.24967352973215,0.00250150964347012
82,0,133,1.26807942898483,0.00267637069689029
82,0,134,1.27953390773703,0.00284193410217353
82,0,135,1.28400056461246,0.00299664401909265
82,0,136,1.28154167114311,0.00313897938815176
82,0,137,1.27232655048437,0.00326745839793646
82,0,138,1.25663892736056,0.00338064670475015
82,0,139,1.23488290488079,0.00347716820144722
82,0,140,1.20758712255706,0.00355571751358652
82,0,141,1.17540648792025,0.00361507362285611
82,0,142,1.13912062397825,0.00365411415010671
82,0,143,1.09962780868342,0.00367182991184312
82,0,144,1.05793268892424,0.00366733941667005
82,0,145,1.01512547043707,0.00363990300471687
82,0,146,0.972349771809779,0.00358893636120722
82,0,147,0.930756241464608,0.00351402315974879
82,0,148,0.891439984600898,0.00341492661473712
82,0,149,0.855362599035379,0.0032915997477667
82,0,150,0.823264636227814,0.00314419420262048
82,0,151,0.795580886314017,0.00297306748104035
82,0,152,0.772376427283083,0.00277878852462854
82,0,153,0.753321912010623,0.00256214165428092
82,0,154,0.737719362765182,0.00232412904046179
82,0,155,0.724576422754521,0.00206597223111114
82,0,156,0.712713702179993,0.0017891141555277
82,0,157,0.70088305947105,0.00149522563710776
82,0,158,0.687876526331996,0.00118622964339567
82,0,159,0.672613169027744,0.000864398051408589
82,0,160,0.654199655856653,0.000532856730411028
82,0,161,0.631966364392057,0.000201432802361075
82,0,162,0.605483711161501,0.000185333198388158
82,0,163,0.574563820399203,0.000525090541961086
82,0,164,0.539251848689273,0.000876186239362698
82,0,165,0.499810139138096,0.00122695044481742
82,0,166,0.456697358843158,0.00157348327054959
82,0,167,0.410544034538218,0.00191259481497685
82,0,168,0.362125440550359,0.00224125845447718
82,0,169,0.312332550490833,0.00255652422307706
82,0,170,0.262141677489171,0.00285551431412615
82,0,171,0.212583465179361,0.00313544062220385
82,0,172,0.164712102300636,0.00339362978722841
82,0,173,0.119576377333298,0.00362755106810624
82,0,174,0.0781976247017389,0.00383484510707159
82,0,175,0.0415851073555724,0.00401335253630513
82,0,176,0.0113913374461633,0.00416114170203735
82,0,177,0.0161793452280637,0.00427653490976156
82,0,178,0.0339196112128924,0.00435813265225543
82,0,179,0.0448554864808413,0.00440483531727227
82,0,180,0.0483902239922073,0.00441586190399817
83,0,0,48.9602277856963,0.00407442281871946
83,0,1,48.8646492554777,0.00397998889570892
83,0,2,48.578629573567,0.00385002222860231
83,0,3,48.105463663602,0.0036877543408544
83,0,4,47.4505885340413,0.00349727867626849
83,0,5,46.6215021923822,0.00328372388354567
83,0,6,45.6276526976632,0.00305352812772909
83,0,7,44.4802998239902,0.00281485865120625
83,0,8,43.1923523766023,0.00257820949133235
83,0,9,41.7781846672082,0.00235712241906769
83,0,10,40.2534359924545,0.00216868372208359
83,0,11,38.6347971412589,0.0020328196943745
83,0,12,36.9397879514718,0.00196884825626773
83,0,13,35.1865297046772,0.0019890410095446
83,0,14,33.3935156404,0.00209309110984576
83,0,15,31.5793820258146,0.00226879839647486
83,0,16,29.7626809617511,0.00249816908081388
83,0,17,27.9616543674226,0.0027633254985362
83,0,18,26.1940063200102,0.00304929753580027
83,0,19,24.4766681765937,0.00334443024289471
83,0,20,22.8255479266383,0.00363984898442747
83,0,21,21.2552526560571,0.00392878337621681
83,0,22,19.7787721190886,0.00420601351095009
83,0,23,18.4071142917632,0.00446747216600794
83,0,24,17.1488931628368,0.00470997170942538
83,0,25,16.0098873688285,0.00493101803260915
83,0,26,14.9926156293863,0.00512868213217576
83,0,27,14.0960058426659,0.00530150915119641
83,0,28,13.3152563602303,0.00544845166236992
83,0,29,12.6419831547656,0.00556881869768911
83,0,30,12.0647035250887,0.00566223509120887
83,0,31,11.5696315783844,0.00572860765583733
83,0,32,11.1416800993874,0.00576809595884014
83,0,33,10.765512683138,0.00578108625407377
83,0,34,10.4264901294632,0.00576816763888183
83,0,35,10.1114003085975,0.00573010983330342
83,0,36,9.80892563121081,0.00566784219458068
83,0,37,9.50986004044467,0.00558243372234382
83,0,38,9.20712319586211,0.00547507390490431
83,0,39,8.89563211780176,0.00534705432170147
83,0,40,8.57208686935548,0.00519975096162623
83,0,41,8.23471523062992,0.00503460724817338
83,0,42,7.88300800821178,0.00485311778458151
83,0,43,7.51746498483416,0.00465681284773286
83,0,44,7.1393627165199,0.00444724367043244
83,0,45,6.75054936521523,0.00422596855879703
83,0,46,6.35326795805439,0.00399453989528397
83,0,47,5.95000725300695,0.00375449207982725
83,0,48,5.5433782243168,0.00350733046137304
83,0,49,5.13601366127276,0.00325452131187126
83,0,50,4.73048823089507,0.00299748289558543
83,0,51,4.329256417978,0.00273757769255231
83,0,52,3.93460592178439,0.00247610585208751
83,0,53,3.54862429936571,0.00221429999595976
83,0,54,3.17317687107582,0.00195332159457388
83,0,55,2.80989413283497,0.00169425939046553
83,0,56,2.46016715498384,0.00143813098515751
83,0,57,2.12514971015501,0.00118589051256665
83,0,58,1.80576622129913,0.000938451168752862
83,0,59,1.50272521947641,0.000696754452583915
83,0,60,1.21653935525883,0.00046204149745782
83,0,61,0.94755693459672,0.00023762124266457
83,0,62,0.696024428872482,7.28701564041924E-05
83,0,63,0.462271394882023,0.000224363550643761
83,0,64,0.247691791895582,0.000426045946043483
83,0,65,0.0722662113478675,0.000623421180777877
83,0,66,0.159121138905167,0.000813389394312713
83,0,67,0.32237415349275,0.000995185263465921
83,0,68,0.474951822974936,0.00116849420566797
83,0,69,0.614007504960217,0.00133316566724533
83,0,70,0.739587003756068,0.00148913684087266
83,0,71,0.852188970858495,0.00163640382859133
83,0,72,0.952443374508963,0.00177500716784453
83,0,73,1.04102818107899,0.00190502266660313
83,0,74,1.11863688546856,0.00202655454353266
83,0,75,1.18596156958901,0.00213972973446952
83,0,76,1.24368217951867,0.0022446928908249
83,0,77,1.29245895409771,0.00234160185883838
83,0,78,1.33292679996839,0.00243062354128801
83,0,79,1.36569105691453,0.00251193009438481
83,0,80,1.39132435226301,0.00258569543643536
83,0,81,1.41036435408669,0.00265209205615021
83,0,82,1.4233122863869,0.00271128811374742
83,0,83,1.43063209822167,0.00276344483036751
83,0,84,1.43275019638589,0.00280871416230357
83,0,85,1.43005566360667,0.00284723675701874
83,0,86,1.42290089394293,0.00287914018822881
83,0,87,1.41160258539253,0.00290453746768593
83,0,88,1.39644303716921,0.0029235258319279
83,0,89,1.37767170595636,0.0029361858030261
83,0,90,1.35550698176359,0.00294258052348998
83,0,91,1.33013814982159,0.00294275536683065
83,0,92,1.30172751023616,0.00293673782694365
83,0,93,1.27041263185739,0.00292453769141994
83,0,94,1.23630872097759,0.00290614750618857
83,0,95,1.19951108903128,0.00288154334160775
83,0,96,1.16009770642024,0.00285068587336095
83,0,97,1.11813183192766,0.00281352179556165
83,0,98,1.07366470893927,0.00276998558859887
83,0,99,1.02673832090372,0.00272000167108754
83,0,100,0.977388199236441,0.00266348697473908
83,0,101,0.925646277376179,0.00260035399445055
83,0,102,0.871543785271072,0.00253051438577588
83,0,103,0.815114179827002,0.00245388321205241
83,0,104,0.756396110044069,0.00237038399019831
83,0,105,0.695436423316777,0.0022799547583479
83,0,106,0.632293237530954,0.00218255550911176
83,0,107,0.567039146188839,0.00207817753300379
83,0,108,0.499764727468197,0.00196685555997511
83,0,109,0.430582798803992,0.00184868419153563
83,0,110,0.359634644415725,0.00172384121617382
83,0,111,0.287102096646826,0.00159262247712765
83,0,112,0.213240501190914,0.00145549704206756
83,0,113,0.138513650909401,0.00131319980030294
83,0,114,0.0646695416653548,0.00116689659159001
83,0,115,0.0306276037806052,0.00101849710989928
83,0,116,0.0988542124987404,0.000871281876723122
83,0,117,0.175546873409103,0.00073120225693029
83,0,118,0.25296849265436,0.000609459077822124
83,0,119,0.330136377410532,0.000526078924369192
83,0,120,0.406505389409851,0.000507397999521332
83,0,121,0.481602226703994,0.00056544319496972
83,0,122,0.554963747936493,0.000684787946059496
83,0,123,0.626123312065771,0.000842236279725268
83,0,124,0.694609491583382,0.00102175956008217
83,0,125,0.759949263411934,0.0012142020543543
83,0,126,0.821673372557366,0.00141420126252993
83,0,127,0.879323039499259,0.00161827509458522
83,0,128,0.93245764301973,0.00182387391192724
83,0,129,0.980663166542756,0.00202892036370059
83,0,130,1.02356124685888,0.00223157972423302
83,0,131,1.06081867373018,0.0024301416788337
83,0,132,1.09215718056999,0.00262295868638208
83,0,133,1.11736334908367,0.00280841471962522
83,0,134,1.13629842753658,0.00298491128446727
83,0,135,1.14890783329861,0.00315086384405958
83,0,136,1.15523007346212,0.00330470485706655
83,0,137,1.15540476846697,0.00344489122795449
83,0,138,1.14967939621061,0.00356991481386766
83,0,139,1.13841427888444,0.00367831509716569
83,0,140,1.1220852004157,0.00376869339335477
83,0,141,1.10128285752281,0.00383972811318412
83,0,142,1.07670810615772,0.00389019068439479
83,0,143,1.04916167881523,0.00391896179032277
83,0,144,1.01952676573625,0.00392504761496119
83,0,145,0.988742690284301,0.00390759580644024
83,0,146,0.957768077876724,0.00386591088891534
83,0,147,0.927532728458986,0.00379946887033219
83,0,148,0.898879182222764,0.00370793081332951
83,0,149,0.872497846362427,0.00359115516142948
83,0,150,0.848863122712234,0.00344920864644039
83,0,151,0.828181051942104,0.0032823756522768
83,0,152,0.810359809881849,0.00309116598847435
83,0,153,0.795011554818414,0.00287632116250313
83,0,154,0.7814878123997,0.00263881950105047
83,0,155,0.768942990058876,0.00237988102604772
83,0,156,0.756414843388636,0.00210097430554173
83,0,157,0.742908866226662,0.0018038309941794
83,0,158,0.727475587597533,0.00149048447551486
83,0,159,0.709273904083652,0.00116338841163373
83,0,160,0.687617833208885,0.000825860310759885
83,0,161,0.662007175158615,0.000484506435303561
83,0,162,0.632144211934897,0.000181493977843441
83,0,163,0.597939060469545,0.00030144416487323
83,0,164,0.559506113922441,0.000644089335063128
83,0,165,0.517153557608296,0.00100135919696193
83,0,166,0.471367479585096,0.00135776824051252
83,0,167,0.422791723393877,0.00170809604168142
83,0,168,0.372204380853661,0.00204860000971147
83,0,169,0.32049168619599,0.00237595034975541
83,0,170,0.26862003095692,0.00268700935212966
83,0,171,0.217606872541895,0.00297878421391507
83,0,172,0.168491536399712,0.00324842935620862
83,0,173,0.122307726759583,0.0034932658664889
83,0,174,0.0800633652935743,0.00371080737274435
83,0,175,0.0427614098555225,0.00389878804880417
83,0,176,0.0120964886476147,0.0040551906545402
83,0,177,0.016201186972632,0.00417827337217516
83,0,178,0.0341422574281681,0.00426659457223029
83,0,179,0.0452314842206324,0.00431903482690347
83,0,180,0.0488163040349285,0.00433481559863067
84,0,0,50.1624448082768,0.00358690704600818
84,0,1,50.0670490559232,0.00342848153308956
84,0,2,49.7815461856232,0.00323220485589633
84,0,3,49.3091448232956,0.00300133024978092
84,0,4,48.6551378670665,0.00274009111433818
84,0,5,47.8268205470877,0.00245407686969981
84,0,6,46.8333782532156,0.00215100145568871
84,0,7,45.6857465813516,0.00184231545682251
84,0,8,44.3964466193663,0.00154659801543313
84,0,9,42.9793989690023,0.00129598601450477
84,0,10,41.44972036262,0.00114267486494804
84,0,11,39.8235069654885,0.00114316197984258
84,0,12,38.1176085380619,0.00130612425253426
84,0,13,36.349397550109,0.0015849768552921
84,0,14,34.5365370697685,0.00192883298238244
84,0,15,32.6967507731497,0.00230482795829441
84,0,16,30.8475977094159,0.00269383884280456
84,0,17,29.006253488486,0.00308417690136262
84,0,18,27.1892983188951,0.003468044563207
84,0,19,25.4125108248523,0.00383980832704363
84,0,20,23.6906648896249,0.00419515550007072
84,0,21,22.0373251035502,0.0045306653733324
84,0,22,20.4646351410047,0.0048435793389927
84,0,23,18.9830932541025,0.00513167004823925
84,0,24,17.6013111082604,0.00539316158697121
84,0,25,16.3257576985162,0.00562667663372403
84,0,26,15.1605001708034,0.00583119812765031
84,0,27,14.1069679615858,0.00600603879209017
84,0,28,13.1637832011757,0.00615081490379763
84,0,29,12.3267128091863,0.0062654223453691
84,0,30,11.5887976257232,0.00635001389381407
84,0,31,10.9406941240523,0.00640497721467482
84,0,32,10.3712248100348,0.00643091332449769
84,0,33,9.86808518081415,0.00642861544852377
84,0,34,9.41861639212339,0.00639904828939779
84,0,35,9.01053946447059,0.00634332776730486
84,0,36,8.63256299001384,0.00626270131077964
84,0,37,8.27481256649743,0.00615852878207086
84,0,38,7.92907083866655,0.00603226411854797
84,0,39,7.58884894827582,0.00588543776646949
84,0,40,7.24932771195044,0.00571963997864548
84,0,41,6.90721109703272,0.00553650504481118
84,0,42,6.56053007875262,0.00533769652436355
84,0,43,6.20842651185741,0.00512489355652168
84,0,44,5.85093765507504,0.00489977833489089
84,0,45,5.48879425923398,0.00466402485399306
84,0,46,5.12323927932901,0.00441928906820505
84,0,47,4.75587022843101,0.00416720065624654
84,0,48,4.38850560762551,0.00390935666723821
84,0,49,4.02307432198314,0.0036473174583106
84,0,50,3.66152618311179,0.00338260555300494
84,0,51,3.30576124364815,0.00311670841847972
84,0,52,2.95757562716368,0.00285108679453218
84,0,53,2.61862159030215,0.00258719133360343
84,0,54,2.29037970989007,0.00232649236960566
84,0,55,1.97414128556668,0.00207053152096298
84,0,56,1.67099927220176,0.00182101141775179
84,0,57,1.38184631913511,0.00157995506560046
84,0,58,1.10737887589601,0.00134999732917885
84,0,59,0.84810716286829,0.00113493207402005
84,0,60,0.604373758154432,0.000940737950137391
84,0,61,0.376400250642957,0.000777325405463518
84,0,62,0.164577166725021,0.000660351729222498
84,0,63,0.0392265610781156,0.00060847279394944
84,0,64,0.216326157211719,0.000629488189383955
